
T07FC 000:415 SEGGER J-Link V5.10h Log File (0001ms, 0306ms total)
T07FC 000:415 DLL Compiled: Jan 21 2016 19:24:29 (0001ms, 0306ms total)
T07FC 000:415 Logging started @ 2017-04-28 11:46 (0002ms, 0307ms total)
T07FC 000:417 JLINK_SetWarnOutHandler(...) (0000ms, 0307ms total)
T07FC 000:417 JLINK_OpenEx(...)
Firmware: J-Link ARM V8 compiled Jan 31 2018 18:34:52
Hardware: V8.00
S/N: 20080643
Feature(s): RDI,FlashDL,FlashBP,JFlash,GDBFull  returns O.K. (0296ms, 0603ms total)
T07FC 000:713 JLINK_SetErrorOutHandler(...) (0001ms, 0604ms total)
T07FC 000:714 JLINK_ExecCommand("ProjectFile = "D:\Documents\GitHub\Stm32f107-Lwip\Project\JLinkSettings.ini"", ...)  returns 0x00 (0005ms, 0609ms total)
T07FC 000:731 JLINK_ExecCommand("Device = STM32F107RC", ...)Device "STM32F107RC" selected.  returns 0x00 (0009ms, 0618ms total)
T07FC 000:741 JLINK_ExecCommand("DisableConnectionTimeout", ...)  returns 0x01 (0000ms, 0618ms total)
T07FC 000:741 JLINK_GetHardwareVersion()  returns 0x13880 (0000ms, 0618ms total)
T07FC 000:741 JLINK_GetDLLVersion()  returns 51008 (0000ms, 0618ms total)
T07FC 000:741 JLINK_GetFirmwareString(...) (0000ms, 0618ms total)
T07FC 000:769 JLINK_GetDLLVersion()  returns 51008 (0000ms, 0618ms total)
T07FC 000:769 JLINK_GetCompileDateTime() (0000ms, 0618ms total)
T07FC 000:772 JLINK_GetFirmwareString(...) (0000ms, 0618ms total)
T07FC 000:774 JLINK_GetHardwareVersion()  returns 0x13880 (0000ms, 0618ms total)
T07FC 000:784 JLINK_TIF_Select(JLINKARM_TIF_SWD)  returns 0x00 (0005ms, 0623ms total)
T07FC 000:789 JLINK_SetSpeed(5000) (0001ms, 0624ms total)
T07FC 000:790 JLINK_GetId() >0x108 TIF>Found SWD-DP with ID 0x1BA01477 >0x0D TIF> >0x28 TIF> >0x0D TIF> >0x28 TIF> >0x0D TIF> >0x28 TIF> >0x0D TIF> >0x28 TIF> >0x0D TIF> >0x21 TIF> >0x0D TIF> >0x28 TIF> >0x0D TIF> >0x28 TIF> >0x0D TIF> >0x28 TIF> >0x0D TIF> >0x21 TIF> >0x0D TIF> >0x21 TIF> >0x0D TIF> >0x28 TIF> >0x0D TIF> >0x21 TIF> >0x0D TIF> >0x21 TIF> >0x0D TIF> >0x28 TIF> >0x0D TIF> >0x21 TIF> >0x0D TIF> >0x21 TIF> >0x0D TIF> >0x28 TIF> >0x0D TIF> >0x21 TIF> >0x0D TIF> >0x21 TIF> >0x108 TIF>
Found SWD-DP with ID 0x1BA01477 >0x0D TIF> >0x28 TIF> >0x0D TIF> >0x28 TIF> >0x0D TIF> >0x28 TIF> >0x0D TIF> >0x28 TIF> >0x0D TIF> >0x21 TIF> >0x0D TIF> >0x28 TIF> >0x0D TIF> >0x28 TIF> >0x0D TIF> >0x21 TIF> >0x0D TIF> >0x21 TIF> >0x0D TIF> >0x21 TIF> >0x0D TIF> >0x28 TIF> >0x0D TIF> >0x28 TIF> >0x0D TIF> >0x28 TIF> >0x0D TIF> >0x21 TIF> >0x0D TIF> >0x21 TIF> >0x0D TIF> >0x28 TIF> >0x0D TIF> >0x21 TIF> >0x0D TIF> >0x21 TIF>Found Cortex-M3 r1p1, Little endian. >0x0D TIF> >0x28 TIF>
 -- CPU_ReadMem(4 bytes @ 0xE000EDF0) -- CPU_ReadMem(4 bytes @ 0xE0002000)FPUnit: 6 code (BP) slots and 2 literal slots -- CPU_ReadMem(4 bytes @ 0xE000EDFC) -- CPU_ReadMem(4 bytes @ 0xE0001000) -- CPU_WriteMem(4 bytes @ 0xE0001000) -- CPU_ReadMem(4 bytes @ 0xE000ED88) -- CPU_WriteMem(4 bytes @ 0xE000ED88) -- CPU_ReadMem(4 bytes @ 0xE000ED88) -- CPU_WriteMem(4 bytes @ 0xE000ED88)CoreSight components:ROMTbl 0 @ E00FF000 -- CPU_ReadMem(16 bytes @ 0xE00FF000) -- CPU_ReadMem(16 bytes @ 0xE000EFF0)
 -- CPU_ReadMem(16 bytes @ 0xE000EFE0)ROMTbl 0 [0]: FFF0F000, CID: B105E00D, PID: 001BB000 SCS -- CPU_ReadMem(16 bytes @ 0xE0001FF0) -- CPU_ReadMem(16 bytes @ 0xE0001FE0)ROMTbl 0 [1]: FFF02000, CID: B105E00D, PID: 001BB002 DWT -- CPU_ReadMem(16 bytes @ 0xE0002FF0) -- CPU_ReadMem(16 bytes @ 0xE0002FE0)ROMTbl 0 [2]: FFF03000, CID: B105E00D, PID: 000BB003 FPB -- CPU_ReadMem(16 bytes @ 0xE0000FF0) -- CPU_ReadMem(16 bytes @ 0xE0000FE0)ROMTbl 0 [3]: FFF01000, CID: B105E00D, PID: 001BB001 ITM
 -- CPU_ReadMem(16 bytes @ 0xE00FF010) -- CPU_ReadMem(16 bytes @ 0xE0040FF0) -- CPU_ReadMem(16 bytes @ 0xE0040FE0)ROMTbl 0 [4]: FFF41000, CID: B105900D, PID: 001BB923 TPIU-Lite -- CPU_ReadMem(16 bytes @ 0xE0041FF0) -- CPU_ReadMem(16 bytes @ 0xE0041FE0)ROMTbl 0 [5]: FFF42000, CID: B105900D, PID: 101BB924 ETM-M3 >0x0D TIF> >0x21 TIF>  returns 0x1BA01477 (0149ms, 0773ms total)
T07FC 000:939 JLINK_GetDLLVersion()  returns 51008 (0000ms, 0773ms total)
T07FC 000:939 JLINK_CORE_GetFound()  returns 0x30000FF (0000ms, 0773ms total)
T07FC 000:940 JLINK_GetDebugInfo(0x100) -- Value=0xE00FF000  returns 0x00 (0000ms, 0773ms total)
T07FC 000:942 JLINK_GetDebugInfo(0x100) -- Value=0xE00FF000  returns 0x00 (0001ms, 0774ms total)
T07FC 000:943 JLINK_GetDebugInfo(0x101) -- Value=0xE0041000  returns 0x00 (0000ms, 0774ms total)
T07FC 000:943 JLINK_GetDebugInfo(0x102) -- Value=0x00000000  returns 0x00 (0000ms, 0774ms total)
T07FC 000:943 JLINK_GetDebugInfo(0x103) -- Value=0xE0040000  returns 0x00 (0000ms, 0774ms total)
T07FC 000:943 JLINK_GetDebugInfo(0x104) -- Value=0xE0000000  returns 0x00 (0000ms, 0774ms total)
T07FC 000:943 JLINK_GetDebugInfo(0x105) -- Value=0xE0001000  returns 0x00 (0000ms, 0774ms total)
T07FC 000:943 JLINK_GetDebugInfo(0x106) -- Value=0xE0002000  returns 0x00 (0000ms, 0774ms total)
T07FC 000:943 JLINK_GetDebugInfo(0x107) -- Value=0xE000E000  returns 0x00 (0000ms, 0774ms total)
T07FC 000:943 JLINK_GetDebugInfo(0x10C) -- Value=0xE000EDF0  returns 0x00 (0000ms, 0774ms total)
T07FC 000:943 JLINK_ReadMemU32(0xE000ED00, 0x0001 Items, ...) -- CPU is running -- CPU_ReadMem(4 bytes @ 0xE000ED00) - Data: 31 C2 1F 41  returns 0x01 (0002ms, 0776ms total)
T07FC 000:945 JLINK_SetResetType(JLINKARM_RESET_TYPE_NORMAL)  returns JLINKARM_RESET_TYPE_NORMAL (0000ms, 0776ms total)
T07FC 000:945 JLINK_Reset() -- CPU_WriteMem(4 bytes @ 0xE0002000) -- CPU_ReadMem(4 bytes @ 0xE000EDFC) -- CPU_WriteMem(4 bytes @ 0xE000EDFC) -- CPU_ReadMem(4 bytes @ 0xE0001000) (0016ms, 0792ms total)
T07FC 000:961 JLINK_Halt()  returns 0x00 (0001ms, 0793ms total)
T07FC 000:962 JLINK_IsHalted()  returns TRUE (0000ms, 0793ms total)
T07FC 000:962 JLINK_ReadMemU32(0xE000EDF0, 0x0001 Items, ...) -- CPU_ReadMem(4 bytes @ 0xE000EDF0) - Data: 03 00 03 00  returns 0x01 (0000ms, 0793ms total)
T07FC 000:962 JLINK_WriteU32(0xE000EDF0, 0xA05F0003) -- CPU_WriteMem(4 bytes @ 0xE000EDF0)  returns 0x00 (0001ms, 0794ms total)
T07FC 000:964 JLINK_WriteU32(0xE000EDFC, 0x01000000) -- CPU_WriteMem(4 bytes @ 0xE000EDFC)  returns 0x00 (0001ms, 0796ms total)
T07FC 000:975 JLINK_GetHWStatus(...)  returns 0x00 (0001ms, 0797ms total)
T07FC 000:984 JLINK_GetNumBPUnits(Type = 0xFFFFFF00)  returns 0x06 (0000ms, 0797ms total)
T07FC 000:984 JLINK_GetNumBPUnits(Type = 0xF0)  returns 0x2000 (0000ms, 0797ms total)
T07FC 000:984 JLINK_GetNumWPUnits()  returns 0x04 (0000ms, 0797ms total)
T07FC 000:991 JLINK_GetSpeed()  returns 0xFA0 (0000ms, 0797ms total)
T07FC 000:996 JLINK_ReadMemU32(0xE000E004, 0x0001 Items, ...) -- CPU_ReadMem(4 bytes @ 0xE000E004) - Data: 02 00 00 00  returns 0x01 (0001ms, 0798ms total)
T07FC 000:997 JLINK_ReadMemU32(0xE000E004, 0x0001 Items, ...) -- CPU_ReadMem(4 bytes @ 0xE000E004) - Data: 02 00 00 00  returns 0x01 (0001ms, 0799ms total)
T07FC 000:998 JLINK_WriteMem(0xE0001000, 0x001C Bytes, ...) - Data: 01 00 00 00 00 00 00 00 00 00 00 00 00 00 00 00 ... -- CPU_WriteMem(28 bytes @ 0xE0001000)  returns 0x1C (0003ms, 0802ms total)
T07FC 001:001 JLINK_ReadMem (0xE0001000, 0x001C Bytes, ...) -- CPU_ReadMem(28 bytes @ 0xE0001000) - Data: 01 00 00 40 00 00 00 00 00 00 00 00 00 00 00 00 ...  returns 0x00 (0001ms, 0803ms total)
T07FC 001:002 JLINK_Halt()  returns 0x00 (0000ms, 0803ms total)
T07FC 001:002 JLINK_IsHalted()  returns TRUE (0000ms, 0803ms total)
T07FC 001:007 JLINK_WriteMem(0x20000000, 0x0164 Bytes, ...) - Data: 00 BE 0A E0 0D 78 2D 06 68 40 08 24 40 00 00 D3 ... -- CPU_WriteMem(356 bytes @ 0x20000000)  returns 0x164 (0004ms, 0807ms total)
T07FC 001:011 JLINK_WriteReg(R0, 0x08000000)  returns 0x00 (0001ms, 0808ms total)
T07FC 001:012 JLINK_WriteReg(R1, 0x00B71B00)  returns 0x00 (0000ms, 0808ms total)
T07FC 001:012 JLINK_WriteReg(R2, 0x00000001)  returns 0x00 (0000ms, 0808ms total)
T07FC 001:012 JLINK_WriteReg(R3, 0x00000000)  returns 0x00 (0000ms, 0808ms total)
T07FC 001:012 JLINK_WriteReg(R4, 0x00000000)  returns 0x00 (0000ms, 0808ms total)
T07FC 001:012 JLINK_WriteReg(R5, 0x00000000)  returns 0x00 (0000ms, 0808ms total)
T07FC 001:012 JLINK_WriteReg(R6, 0x00000000)  returns 0x00 (0000ms, 0808ms total)
T07FC 001:012 JLINK_WriteReg(R7, 0x00000000)  returns 0x00 (0000ms, 0808ms total)
T07FC 001:012 JLINK_WriteReg(R8, 0x00000000)  returns 0x00 (0000ms, 0808ms total)
T07FC 001:012 JLINK_WriteReg(R9, 0x20000160)  returns 0x00 (0000ms, 0808ms total)
T07FC 001:012 JLINK_WriteReg(R10, 0x00000000)  returns 0x00 (0000ms, 0808ms total)
T07FC 001:012 JLINK_WriteReg(R11, 0x00000000)  returns 0x00 (0000ms, 0808ms total)
T07FC 001:012 JLINK_WriteReg(R12, 0x00000000)  returns 0x00 (0000ms, 0808ms total)
T07FC 001:012 JLINK_WriteReg(R13 (SP), 0x20001000)  returns 0x00 (0000ms, 0808ms total)
T07FC 001:012 JLINK_WriteReg(R14, 0x20000001)  returns 0x00 (0000ms, 0808ms total)
T07FC 001:012 JLINK_WriteReg(R15 (PC), 0x20000038)  returns 0x00 (0001ms, 0809ms total)
T07FC 001:013 JLINK_WriteReg(XPSR, 0x01000000)  returns 0x00 (0000ms, 0809ms total)
T07FC 001:013 JLINK_WriteReg(MSP, 0x20001000)  returns 0x00 (0000ms, 0809ms total)
T07FC 001:013 JLINK_WriteReg(PSP, 0x20001000)  returns 0x00 (0000ms, 0809ms total)
T07FC 001:013 JLINK_WriteReg(CFBP, 0x00000000)  returns 0x00 (0000ms, 0809ms total)
T07FC 001:013 JLINK_SetBPEx(Addr = 0x20000000, Type = 0xFFFFFFF2) -- CPU_ReadMem(2 bytes @ 0x20000000)  returns 0x00000001 (0001ms, 0810ms total)
T07FC 001:014 JLINK_Go() -- CPU_WriteMem(2 bytes @ 0x20000000) -- CPU_ReadMem(4 bytes @ 0xE0001000) -- CPU_WriteMem(4 bytes @ 0xE0002008) -- CPU_WriteMem(4 bytes @ 0xE000200C) -- CPU_WriteMem(4 bytes @ 0xE0002010) -- CPU_WriteMem(4 bytes @ 0xE0002014) -- CPU_WriteMem(4 bytes @ 0xE0002018) -- CPU_WriteMem(4 bytes @ 0xE000201C) -- CPU_WriteMem(4 bytes @ 0xE0001004) (0013ms, 0823ms total)
T07FC 001:027 JLINK_IsHalted() -- CPU_ReadMem(2 bytes @ 0x20000000)  returns TRUE (0005ms, 0828ms total)
T07FC 001:032 JLINK_ReadReg(R15 (PC))  returns 0x20000000 (0000ms, 0823ms total)
T07FC 001:032 JLINK_ClrBPEx(BPHandle = 0x00000001)  returns 0x00 (0000ms, 0823ms total)
T07FC 001:032 JLINK_ReadReg(R0)  returns 0x00000000 (0000ms, 0823ms total)
T07FC 001:032 JLINK_WriteReg(R0, 0x08000000)  returns 0x00 (0000ms, 0823ms total)
T07FC 001:033 JLINK_WriteReg(R1, 0x00B71B00)  returns 0x00 (0000ms, 0824ms total)
T07FC 001:033 JLINK_WriteReg(R2, 0x00000001)  returns 0x00 (0000ms, 0824ms total)
T07FC 001:033 JLINK_WriteReg(R3, 0x00000000)  returns 0x00 (0000ms, 0824ms total)
T07FC 001:033 JLINK_WriteReg(R4, 0x00000000)  returns 0x00 (0000ms, 0824ms total)
T07FC 001:033 JLINK_WriteReg(R5, 0x00000000)  returns 0x00 (0000ms, 0824ms total)
T07FC 001:033 JLINK_WriteReg(R6, 0x00000000)  returns 0x00 (0000ms, 0824ms total)
T07FC 001:033 JLINK_WriteReg(R7, 0x00000000)  returns 0x00 (0000ms, 0824ms total)
T07FC 001:033 JLINK_WriteReg(R8, 0x00000000)  returns 0x00 (0000ms, 0824ms total)
T07FC 001:033 JLINK_WriteReg(R9, 0x20000160)  returns 0x00 (0000ms, 0824ms total)
T07FC 001:033 JLINK_WriteReg(R10, 0x00000000)  returns 0x00 (0000ms, 0824ms total)
T07FC 001:033 JLINK_WriteReg(R11, 0x00000000)  returns 0x00 (0000ms, 0824ms total)
T07FC 001:033 JLINK_WriteReg(R12, 0x00000000)  returns 0x00 (0000ms, 0824ms total)
T07FC 001:033 JLINK_WriteReg(R13 (SP), 0x20001000)  returns 0x00 (0000ms, 0824ms total)
T07FC 001:033 JLINK_WriteReg(R14, 0x20000001)  returns 0x00 (0000ms, 0824ms total)
T07FC 001:033 JLINK_WriteReg(R15 (PC), 0x2000007C)  returns 0x00 (0000ms, 0824ms total)
T07FC 001:033 JLINK_WriteReg(XPSR, 0x01000000)  returns 0x00 (0001ms, 0825ms total)
T07FC 001:034 JLINK_WriteReg(MSP, 0x20001000)  returns 0x00 (0000ms, 0825ms total)
T07FC 001:034 JLINK_WriteReg(PSP, 0x20001000)  returns 0x00 (0000ms, 0825ms total)
T07FC 001:034 JLINK_WriteReg(CFBP, 0x00000000)  returns 0x00 (0000ms, 0825ms total)
T07FC 001:034 JLINK_SetBPEx(Addr = 0x20000000, Type = 0xFFFFFFF2)  returns 0x00000002 (0000ms, 0825ms total)
T07FC 001:034 JLINK_Go() -- CPU_ReadMem(4 bytes @ 0xE0001000) (0003ms, 0828ms total)
T07FC 001:037 JLINK_IsHalted()  returns FALSE (0001ms, 0829ms total)
T07FC 001:197 JLINK_IsHalted() -- CPU_ReadMem(2 bytes @ 0x20000000)  returns TRUE (0005ms, 0833ms total)
T07FC 001:202 JLINK_ReadReg(R15 (PC))  returns 0x20000000 (0000ms, 0828ms total)
T07FC 001:202 JLINK_ClrBPEx(BPHandle = 0x00000002)  returns 0x00 (0000ms, 0828ms total)
T07FC 001:202 JLINK_ReadReg(R0)  returns 0x00000000 (0000ms, 0828ms total)
T07FC 001:259 JLINK_WriteReg(R0, 0x00000001)  returns 0x00 (0000ms, 0828ms total)
T07FC 001:259 JLINK_WriteReg(R1, 0x00B71B00)  returns 0x00 (0000ms, 0828ms total)
T07FC 001:259 JLINK_WriteReg(R2, 0x00000001)  returns 0x00 (0001ms, 0829ms total)
T07FC 001:260 JLINK_WriteReg(R3, 0x00000000)  returns 0x00 (0000ms, 0829ms total)
T07FC 001:260 JLINK_WriteReg(R4, 0x00000000)  returns 0x00 (0000ms, 0829ms total)
T07FC 001:260 JLINK_WriteReg(R5, 0x00000000)  returns 0x00 (0001ms, 0830ms total)
T07FC 001:261 JLINK_WriteReg(R6, 0x00000000)  returns 0x00 (0000ms, 0830ms total)
T07FC 001:261 JLINK_WriteReg(R7, 0x00000000)  returns 0x00 (0000ms, 0830ms total)
T07FC 001:261 JLINK_WriteReg(R8, 0x00000000)  returns 0x00 (0000ms, 0830ms total)
T07FC 001:262 JLINK_WriteReg(R9, 0x20000160)  returns 0x00 (0000ms, 0831ms total)
T07FC 001:262 JLINK_WriteReg(R10, 0x00000000)  returns 0x00 (0000ms, 0831ms total)
T07FC 001:262 JLINK_WriteReg(R11, 0x00000000)  returns 0x00 (0000ms, 0831ms total)
T07FC 001:262 JLINK_WriteReg(R12, 0x00000000)  returns 0x00 (0001ms, 0832ms total)
T07FC 001:263 JLINK_WriteReg(R13 (SP), 0x20001000)  returns 0x00 (0000ms, 0832ms total)
T07FC 001:263 JLINK_WriteReg(R14, 0x20000001)  returns 0x00 (0000ms, 0832ms total)
T07FC 001:263 JLINK_WriteReg(R15 (PC), 0x2000006A)  returns 0x00 (0001ms, 0833ms total)
T07FC 001:264 JLINK_WriteReg(XPSR, 0x01000000)  returns 0x00 (0000ms, 0833ms total)
T07FC 001:264 JLINK_WriteReg(MSP, 0x20001000)  returns 0x00 (0000ms, 0833ms total)
T07FC 001:264 JLINK_WriteReg(PSP, 0x20001000)  returns 0x00 (0001ms, 0834ms total)
T07FC 001:265 JLINK_WriteReg(CFBP, 0x00000000)  returns 0x00 (0000ms, 0834ms total)
T07FC 001:265 JLINK_SetBPEx(Addr = 0x20000000, Type = 0xFFFFFFF2)  returns 0x00000003 (0000ms, 0834ms total)
T07FC 001:266 JLINK_Go() -- CPU_ReadMem(4 bytes @ 0xE0001000) (0005ms, 0839ms total)
T07FC 001:271 JLINK_IsHalted() -- CPU_ReadMem(2 bytes @ 0x20000000)  returns TRUE (0008ms, 0847ms total)
T07FC 001:279 JLINK_ReadReg(R15 (PC))  returns 0x20000000 (0001ms, 0840ms total)
T07FC 001:280 JLINK_ClrBPEx(BPHandle = 0x00000003)  returns 0x00 (0000ms, 0840ms total)
T07FC 001:280 JLINK_ReadReg(R0)  returns 0x00000000 (0000ms, 0840ms total)
T07FC 001:305 JLINK_WriteMem(0x20000000, 0x0164 Bytes, ...) - Data: 00 BE 0A E0 0D 78 2D 06 68 40 08 24 40 00 00 D3 ... -- CPU_WriteMem(356 bytes @ 0x20000000)  returns 0x164 (0004ms, 0844ms total)
T07FC 001:309 JLINK_WriteReg(R0, 0x08000000)  returns 0x00 (0000ms, 0844ms total)
T07FC 001:309 JLINK_WriteReg(R1, 0x00B71B00)  returns 0x00 (0000ms, 0844ms total)
T07FC 001:309 JLINK_WriteReg(R2, 0x00000002)  returns 0x00 (0000ms, 0844ms total)
T07FC 001:309 JLINK_WriteReg(R3, 0x00000000)  returns 0x00 (0000ms, 0844ms total)
T07FC 001:310 JLINK_WriteReg(R4, 0x00000000)  returns 0x00 (0000ms, 0845ms total)
T07FC 001:310 JLINK_WriteReg(R5, 0x00000000)  returns 0x00 (0000ms, 0845ms total)
T07FC 001:310 JLINK_WriteReg(R6, 0x00000000)  returns 0x00 (0000ms, 0845ms total)
T07FC 001:310 JLINK_WriteReg(R7, 0x00000000)  returns 0x00 (0000ms, 0845ms total)
T07FC 001:310 JLINK_WriteReg(R8, 0x00000000)  returns 0x00 (0000ms, 0845ms total)
T07FC 001:310 JLINK_WriteReg(R9, 0x20000160)  returns 0x00 (0000ms, 0845ms total)
T07FC 001:311 JLINK_WriteReg(R10, 0x00000000)  returns 0x00 (0000ms, 0846ms total)
T07FC 001:311 JLINK_WriteReg(R11, 0x00000000)  returns 0x00 (0000ms, 0846ms total)
T07FC 001:311 JLINK_WriteReg(R12, 0x00000000)  returns 0x00 (0000ms, 0846ms total)
T07FC 001:311 JLINK_WriteReg(R13 (SP), 0x20001000)  returns 0x00 (0000ms, 0846ms total)
T07FC 001:311 JLINK_WriteReg(R14, 0x20000001)  returns 0x00 (0000ms, 0846ms total)
T07FC 001:311 JLINK_WriteReg(R15 (PC), 0x20000038)  returns 0x00 (0000ms, 0846ms total)
T07FC 001:312 JLINK_WriteReg(XPSR, 0x01000000)  returns 0x00 (0000ms, 0847ms total)
T07FC 001:312 JLINK_WriteReg(MSP, 0x20001000)  returns 0x00 (0000ms, 0847ms total)
T07FC 001:312 JLINK_WriteReg(PSP, 0x20001000)  returns 0x00 (0000ms, 0847ms total)
T07FC 001:312 JLINK_WriteReg(CFBP, 0x00000000)  returns 0x00 (0000ms, 0847ms total)
T07FC 001:312 JLINK_SetBPEx(Addr = 0x20000000, Type = 0xFFFFFFF2) -- CPU_ReadMem(2 bytes @ 0x20000000)  returns 0x00000004 (0002ms, 0849ms total)
T07FC 001:314 JLINK_Go() -- CPU_WriteMem(2 bytes @ 0x20000000) -- CPU_ReadMem(4 bytes @ 0xE0001000) (0007ms, 0856ms total)
T07FC 001:321 JLINK_IsHalted() -- CPU_ReadMem(2 bytes @ 0x20000000)  returns TRUE (0006ms, 0862ms total)
T07FC 001:327 JLINK_ReadReg(R15 (PC))  returns 0x20000000 (0000ms, 0856ms total)
T07FC 001:327 JLINK_ClrBPEx(BPHandle = 0x00000004)  returns 0x00 (0000ms, 0856ms total)
T07FC 001:327 JLINK_ReadReg(R0)  returns 0x00000000 (0000ms, 0856ms total)
T07FC 001:329 JLINK_WriteMem(0x20000164, 0x0400 Bytes, ...) - Data: 78 CA 00 20 F5 01 00 08 FD 01 00 08 FF 01 00 08 ... -- CPU_WriteMem(1024 bytes @ 0x20000164)  returns 0x400 (0007ms, 0863ms total)
T07FC 001:336 JLINK_WriteReg(R0, 0x08000000)  returns 0x00 (0000ms, 0863ms total)
T07FC 001:336 JLINK_WriteReg(R1, 0x00000400)  returns 0x00 (0000ms, 0863ms total)
T07FC 001:336 JLINK_WriteReg(R2, 0x20000164)  returns 0x00 (0000ms, 0863ms total)
T07FC 001:336 JLINK_WriteReg(R3, 0x00000000)  returns 0x00 (0001ms, 0864ms total)
T07FC 001:337 JLINK_WriteReg(R4, 0x00000000)  returns 0x00 (0000ms, 0864ms total)
T07FC 001:337 JLINK_WriteReg(R5, 0x00000000)  returns 0x00 (0000ms, 0864ms total)
T07FC 001:337 JLINK_WriteReg(R6, 0x00000000)  returns 0x00 (0000ms, 0864ms total)
T07FC 001:337 JLINK_WriteReg(R7, 0x00000000)  returns 0x00 (0000ms, 0864ms total)
T07FC 001:337 JLINK_WriteReg(R8, 0x00000000)  returns 0x00 (0000ms, 0864ms total)
T07FC 001:337 JLINK_WriteReg(R9, 0x20000160)  returns 0x00 (0000ms, 0864ms total)
T07FC 001:337 JLINK_WriteReg(R10, 0x00000000)  returns 0x00 (0000ms, 0864ms total)
T07FC 001:337 JLINK_WriteReg(R11, 0x00000000)  returns 0x00 (0000ms, 0864ms total)
T07FC 001:337 JLINK_WriteReg(R12, 0x00000000)  returns 0x00 (0001ms, 0865ms total)
T07FC 001:338 JLINK_WriteReg(R13 (SP), 0x20001000)  returns 0x00 (0000ms, 0865ms total)
T07FC 001:338 JLINK_WriteReg(R14, 0x20000001)  returns 0x00 (0000ms, 0865ms total)
T07FC 001:338 JLINK_WriteReg(R15 (PC), 0x200000F4)  returns 0x00 (0000ms, 0865ms total)
T07FC 001:338 JLINK_WriteReg(XPSR, 0x01000000)  returns 0x00 (0000ms, 0865ms total)
T07FC 001:338 JLINK_WriteReg(MSP, 0x20001000)  returns 0x00 (0000ms, 0865ms total)
T07FC 001:338 JLINK_WriteReg(PSP, 0x20001000)  returns 0x00 (0000ms, 0865ms total)
T07FC 001:338 JLINK_WriteReg(CFBP, 0x00000000)  returns 0x00 (0000ms, 0865ms total)
T07FC 001:338 JLINK_SetBPEx(Addr = 0x20000000, Type = 0xFFFFFFF2)  returns 0x00000005 (0000ms, 0865ms total)
T07FC 001:338 JLINK_Go() -- CPU_ReadMem(4 bytes @ 0xE0001000) (0004ms, 0869ms total)
T07FC 001:342 JLINK_IsHalted()  returns FALSE (0001ms, 0870ms total)
T07FC 001:426 JLINK_IsHalted() -- CPU_ReadMem(2 bytes @ 0x20000000)  returns TRUE (0006ms, 0875ms total)
T07FC 001:432 JLINK_ReadReg(R15 (PC))  returns 0x20000000 (0000ms, 0869ms total)
T07FC 001:432 JLINK_ClrBPEx(BPHandle = 0x00000005)  returns 0x00 (0000ms, 0869ms total)
T07FC 001:432 JLINK_ReadReg(R0)  returns 0x00000000 (0000ms, 0869ms total)
T07FC 001:433 JLINK_WriteMem(0x20000164, 0x0400 Bytes, ...) - Data: 48 BF 0C C0 5D F8 04 EB 89 00 28 BF 40 F8 04 2B ... -- CPU_WriteMem(1024 bytes @ 0x20000164)  returns 0x400 (0007ms, 0876ms total)
T07FC 001:440 JLINK_WriteReg(R0, 0x08000400)  returns 0x00 (0000ms, 0876ms total)
T07FC 001:440 JLINK_WriteReg(R1, 0x00000400)  returns 0x00 (0000ms, 0876ms total)
T07FC 001:440 JLINK_WriteReg(R2, 0x20000164)  returns 0x00 (0000ms, 0876ms total)
T07FC 001:440 JLINK_WriteReg(R3, 0x00000000)  returns 0x00 (0000ms, 0876ms total)
T07FC 001:440 JLINK_WriteReg(R4, 0x00000000)  returns 0x00 (0000ms, 0876ms total)
T07FC 001:440 JLINK_WriteReg(R5, 0x00000000)  returns 0x00 (0000ms, 0876ms total)
T07FC 001:440 JLINK_WriteReg(R6, 0x00000000)  returns 0x00 (0000ms, 0876ms total)
T07FC 001:440 JLINK_WriteReg(R7, 0x00000000)  returns 0x00 (0000ms, 0876ms total)
T07FC 001:441 JLINK_WriteReg(R8, 0x00000000)  returns 0x00 (0000ms, 0877ms total)
T07FC 001:441 JLINK_WriteReg(R9, 0x20000160)  returns 0x00 (0000ms, 0877ms total)
T07FC 001:441 JLINK_WriteReg(R10, 0x00000000)  returns 0x00 (0000ms, 0877ms total)
T07FC 001:441 JLINK_WriteReg(R11, 0x00000000)  returns 0x00 (0000ms, 0877ms total)
T07FC 001:441 JLINK_WriteReg(R12, 0x00000000)  returns 0x00 (0000ms, 0877ms total)
T07FC 001:441 JLINK_WriteReg(R13 (SP), 0x20001000)  returns 0x00 (0000ms, 0877ms total)
T07FC 001:441 JLINK_WriteReg(R14, 0x20000001)  returns 0x00 (0000ms, 0877ms total)
T07FC 001:441 JLINK_WriteReg(R15 (PC), 0x200000F4)  returns 0x00 (0000ms, 0877ms total)
T07FC 001:441 JLINK_WriteReg(XPSR, 0x01000000)  returns 0x00 (0000ms, 0877ms total)
T07FC 001:441 JLINK_WriteReg(MSP, 0x20001000)  returns 0x00 (0000ms, 0877ms total)
T07FC 001:441 JLINK_WriteReg(PSP, 0x20001000)  returns 0x00 (0000ms, 0877ms total)
T07FC 001:441 JLINK_WriteReg(CFBP, 0x00000000)  returns 0x00 (0000ms, 0877ms total)
T07FC 001:441 JLINK_SetBPEx(Addr = 0x20000000, Type = 0xFFFFFFF2)  returns 0x00000006 (0000ms, 0877ms total)
T07FC 001:441 JLINK_Go() -- CPU_ReadMem(4 bytes @ 0xE0001000) (0004ms, 0881ms total)
T07FC 001:445 JLINK_IsHalted()  returns FALSE (0001ms, 0882ms total)
T07FC 001:492 JLINK_IsHalted() -- CPU_ReadMem(2 bytes @ 0x20000000)  returns TRUE (0011ms, 0892ms total)
T07FC 001:503 JLINK_ReadReg(R15 (PC))  returns 0x20000000 (0000ms, 0881ms total)
T07FC 001:503 JLINK_ClrBPEx(BPHandle = 0x00000006)  returns 0x00 (0000ms, 0881ms total)
T07FC 001:503 JLINK_ReadReg(R0)  returns 0x00000000 (0000ms, 0881ms total)
T07FC 001:504 JLINK_WriteMem(0x20000164, 0x0400 Bytes, ...) - Data: 00 88 00 F4 00 40 80 B9 09 48 00 68 00 88 00 F4 ... -- CPU_WriteMem(1024 bytes @ 0x20000164)  returns 0x400 (0008ms, 0889ms total)
T07FC 001:512 JLINK_WriteReg(R0, 0x08000800)  returns 0x00 (0000ms, 0889ms total)
T07FC 001:512 JLINK_WriteReg(R1, 0x00000400)  returns 0x00 (0000ms, 0889ms total)
T07FC 001:512 JLINK_WriteReg(R2, 0x20000164)  returns 0x00 (0000ms, 0889ms total)
T07FC 001:512 JLINK_WriteReg(R3, 0x00000000)  returns 0x00 (0000ms, 0889ms total)
T07FC 001:512 JLINK_WriteReg(R4, 0x00000000)  returns 0x00 (0000ms, 0889ms total)
T07FC 001:512 JLINK_WriteReg(R5, 0x00000000)  returns 0x00 (0000ms, 0889ms total)
T07FC 001:512 JLINK_WriteReg(R6, 0x00000000)  returns 0x00 (0000ms, 0889ms total)
T07FC 001:512 JLINK_WriteReg(R7, 0x00000000)  returns 0x00 (0000ms, 0889ms total)
T07FC 001:512 JLINK_WriteReg(R8, 0x00000000)  returns 0x00 (0000ms, 0889ms total)
T07FC 001:512 JLINK_WriteReg(R9, 0x20000160)  returns 0x00 (0000ms, 0889ms total)
T07FC 001:512 JLINK_WriteReg(R10, 0x00000000)  returns 0x00 (0001ms, 0890ms total)
T07FC 001:513 JLINK_WriteReg(R11, 0x00000000)  returns 0x00 (0000ms, 0890ms total)
T07FC 001:513 JLINK_WriteReg(R12, 0x00000000)  returns 0x00 (0000ms, 0890ms total)
T07FC 001:513 JLINK_WriteReg(R13 (SP), 0x20001000)  returns 0x00 (0000ms, 0890ms total)
T07FC 001:513 JLINK_WriteReg(R14, 0x20000001)  returns 0x00 (0000ms, 0890ms total)
T07FC 001:513 JLINK_WriteReg(R15 (PC), 0x200000F4)  returns 0x00 (0000ms, 0890ms total)
T07FC 001:513 JLINK_WriteReg(XPSR, 0x01000000)  returns 0x00 (0000ms, 0890ms total)
T07FC 001:513 JLINK_WriteReg(MSP, 0x20001000)  returns 0x00 (0000ms, 0890ms total)
T07FC 001:513 JLINK_WriteReg(PSP, 0x20001000)  returns 0x00 (0000ms, 0890ms total)
T07FC 001:513 JLINK_WriteReg(CFBP, 0x00000000)  returns 0x00 (0000ms, 0890ms total)
T07FC 001:513 JLINK_SetBPEx(Addr = 0x20000000, Type = 0xFFFFFFF2)  returns 0x00000007 (0000ms, 0890ms total)
T07FC 001:513 JLINK_Go() -- CPU_ReadMem(4 bytes @ 0xE0001000) (0005ms, 0895ms total)
T07FC 001:518 JLINK_IsHalted()  returns FALSE (0003ms, 0898ms total)
T07FC 001:607 JLINK_IsHalted() -- CPU_ReadMem(2 bytes @ 0x20000000)  returns TRUE (0006ms, 0901ms total)
T07FC 001:613 JLINK_ReadReg(R15 (PC))  returns 0x20000000 (0000ms, 0895ms total)
T07FC 001:613 JLINK_ClrBPEx(BPHandle = 0x00000007)  returns 0x00 (0000ms, 0895ms total)
T07FC 001:613 JLINK_ReadReg(R0)  returns 0x00000000 (0000ms, 0895ms total)
T07FC 001:615 JLINK_WriteMem(0x20000164, 0x0400 Bytes, ...) - Data: B2 B9 13 4A 12 68 12 88 02 F4 80 72 82 B1 10 4A ... -- CPU_WriteMem(1024 bytes @ 0x20000164)  returns 0x400 (0005ms, 0900ms total)
T07FC 001:621 JLINK_WriteReg(R0, 0x08000C00)  returns 0x00 (0000ms, 0900ms total)
T07FC 001:621 JLINK_WriteReg(R1, 0x00000400)  returns 0x00 (0000ms, 0900ms total)
T07FC 001:621 JLINK_WriteReg(R2, 0x20000164)  returns 0x00 (0000ms, 0900ms total)
T07FC 001:621 JLINK_WriteReg(R3, 0x00000000)  returns 0x00 (0000ms, 0900ms total)
T07FC 001:621 JLINK_WriteReg(R4, 0x00000000)  returns 0x00 (0000ms, 0900ms total)
T07FC 001:621 JLINK_WriteReg(R5, 0x00000000)  returns 0x00 (0000ms, 0900ms total)
T07FC 001:621 JLINK_WriteReg(R6, 0x00000000)  returns 0x00 (0000ms, 0900ms total)
T07FC 001:621 JLINK_WriteReg(R7, 0x00000000)  returns 0x00 (0000ms, 0900ms total)
T07FC 001:621 JLINK_WriteReg(R8, 0x00000000)  returns 0x00 (0000ms, 0900ms total)
T07FC 001:621 JLINK_WriteReg(R9, 0x20000160)  returns 0x00 (0000ms, 0900ms total)
T07FC 001:621 JLINK_WriteReg(R10, 0x00000000)  returns 0x00 (0000ms, 0900ms total)
T07FC 001:621 JLINK_WriteReg(R11, 0x00000000)  returns 0x00 (0000ms, 0900ms total)
T07FC 001:621 JLINK_WriteReg(R12, 0x00000000)  returns 0x00 (0000ms, 0900ms total)
T07FC 001:621 JLINK_WriteReg(R13 (SP), 0x20001000)  returns 0x00 (0001ms, 0901ms total)
T07FC 001:622 JLINK_WriteReg(R14, 0x20000001)  returns 0x00 (0000ms, 0901ms total)
T07FC 001:622 JLINK_WriteReg(R15 (PC), 0x200000F4)  returns 0x00 (0000ms, 0901ms total)
T07FC 001:622 JLINK_WriteReg(XPSR, 0x01000000)  returns 0x00 (0000ms, 0901ms total)
T07FC 001:622 JLINK_WriteReg(MSP, 0x20001000)  returns 0x00 (0000ms, 0901ms total)
T07FC 001:622 JLINK_WriteReg(PSP, 0x20001000)  returns 0x00 (0000ms, 0901ms total)
T07FC 001:622 JLINK_WriteReg(CFBP, 0x00000000)  returns 0x00 (0000ms, 0901ms total)
T07FC 001:622 JLINK_SetBPEx(Addr = 0x20000000, Type = 0xFFFFFFF2)  returns 0x00000008 (0000ms, 0901ms total)
T07FC 001:622 JLINK_Go() -- CPU_ReadMem(4 bytes @ 0xE0001000) (0005ms, 0906ms total)
T07FC 001:627 JLINK_IsHalted()  returns FALSE (0001ms, 0907ms total)
T07FC 001:633 JLINK_IsHalted()  returns FALSE (0002ms, 0908ms total)
T07FC 001:638 JLINK_IsHalted()  returns FALSE (0001ms, 0907ms total)
T07FC 001:641 JLINK_IsHalted()  returns FALSE (0001ms, 0907ms total)
T07FC 001:648 JLINK_IsHalted()  returns FALSE (0001ms, 0907ms total)
T07FC 001:651 JLINK_IsHalted()  returns FALSE (0001ms, 0907ms total)
T07FC 001:656 JLINK_IsHalted()  returns FALSE (0001ms, 0907ms total)
T07FC 001:727 JLINK_IsHalted() -- CPU_ReadMem(2 bytes @ 0x20000000)  returns TRUE (0006ms, 0912ms total)
T07FC 001:733 JLINK_ReadReg(R15 (PC))  returns 0x20000000 (0000ms, 0906ms total)
T07FC 001:733 JLINK_ClrBPEx(BPHandle = 0x00000008)  returns 0x00 (0000ms, 0906ms total)
T07FC 001:733 JLINK_ReadReg(R0)  returns 0x00000000 (0000ms, 0906ms total)
T07FC 001:735 JLINK_WriteMem(0x20000164, 0x0400 Bytes, ...) - Data: DC 00 20 42 2D E9 F0 41 02 46 00 25 00 26 00 20 ... -- CPU_WriteMem(1024 bytes @ 0x20000164)  returns 0x400 (0006ms, 0912ms total)
T07FC 001:741 JLINK_WriteReg(R0, 0x08001000)  returns 0x00 (0000ms, 0912ms total)
T07FC 001:741 JLINK_WriteReg(R1, 0x00000400)  returns 0x00 (0000ms, 0912ms total)
T07FC 001:741 JLINK_WriteReg(R2, 0x20000164)  returns 0x00 (0000ms, 0912ms total)
T07FC 001:741 JLINK_WriteReg(R3, 0x00000000)  returns 0x00 (0000ms, 0912ms total)
T07FC 001:741 JLINK_WriteReg(R4, 0x00000000)  returns 0x00 (0000ms, 0912ms total)
T07FC 001:741 JLINK_WriteReg(R5, 0x00000000)  returns 0x00 (0000ms, 0912ms total)
T07FC 001:741 JLINK_WriteReg(R6, 0x00000000)  returns 0x00 (0000ms, 0912ms total)
T07FC 001:741 JLINK_WriteReg(R7, 0x00000000)  returns 0x00 (0000ms, 0912ms total)
T07FC 001:741 JLINK_WriteReg(R8, 0x00000000)  returns 0x00 (0000ms, 0912ms total)
T07FC 001:741 JLINK_WriteReg(R9, 0x20000160)  returns 0x00 (0000ms, 0912ms total)
T07FC 001:741 JLINK_WriteReg(R10, 0x00000000)  returns 0x00 (0000ms, 0912ms total)
T07FC 001:741 JLINK_WriteReg(R11, 0x00000000)  returns 0x00 (0000ms, 0912ms total)
T07FC 001:741 JLINK_WriteReg(R12, 0x00000000)  returns 0x00 (0000ms, 0912ms total)
T07FC 001:741 JLINK_WriteReg(R13 (SP), 0x20001000)  returns 0x00 (0000ms, 0912ms total)
T07FC 001:742 JLINK_WriteReg(R14, 0x20000001)  returns 0x00 (0000ms, 0912ms total)
T07FC 001:742 JLINK_WriteReg(R15 (PC), 0x200000F4)  returns 0x00 (0000ms, 0912ms total)
T07FC 001:742 JLINK_WriteReg(XPSR, 0x01000000)  returns 0x00 (0000ms, 0912ms total)
T07FC 001:742 JLINK_WriteReg(MSP, 0x20001000)  returns 0x00 (0000ms, 0912ms total)
T07FC 001:742 JLINK_WriteReg(PSP, 0x20001000)  returns 0x00 (0000ms, 0912ms total)
T07FC 001:742 JLINK_WriteReg(CFBP, 0x00000000)  returns 0x00 (0000ms, 0912ms total)
T07FC 001:742 JLINK_SetBPEx(Addr = 0x20000000, Type = 0xFFFFFFF2)  returns 0x00000009 (0000ms, 0912ms total)
T07FC 001:742 JLINK_Go() -- CPU_ReadMem(4 bytes @ 0xE0001000) (0004ms, 0916ms total)
T07FC 001:746 JLINK_IsHalted()  returns FALSE (0001ms, 0917ms total)
T07FC 001:749 JLINK_IsHalted()  returns FALSE (0001ms, 0917ms total)
T07FC 001:752 JLINK_IsHalted()  returns FALSE (0001ms, 0917ms total)
T07FC 001:755 JLINK_IsHalted()  returns FALSE (0001ms, 0917ms total)
T07FC 001:759 JLINK_IsHalted()  returns FALSE (0001ms, 0917ms total)
T07FC 001:762 JLINK_IsHalted()  returns FALSE (0001ms, 0917ms total)
T07FC 001:823 JLINK_IsHalted() -- CPU_ReadMem(2 bytes @ 0x20000000)  returns TRUE (0005ms, 0921ms total)
T07FC 001:828 JLINK_ReadReg(R15 (PC))  returns 0x20000000 (0000ms, 0916ms total)
T07FC 001:828 JLINK_ClrBPEx(BPHandle = 0x00000009)  returns 0x00 (0000ms, 0916ms total)
T07FC 001:828 JLINK_ReadReg(R0)  returns 0x00000000 (0000ms, 0916ms total)
T07FC 001:830 JLINK_WriteMem(0x20000164, 0x0400 Bytes, ...) - Data: 04 80 08 F0 F0 01 09 09 DF F8 8C 80 18 F8 01 30 ... -- CPU_WriteMem(1024 bytes @ 0x20000164)  returns 0x400 (0007ms, 0923ms total)
T07FC 001:837 JLINK_WriteReg(R0, 0x08001400)  returns 0x00 (0000ms, 0923ms total)
T07FC 001:837 JLINK_WriteReg(R1, 0x00000400)  returns 0x00 (0000ms, 0923ms total)
T07FC 001:837 JLINK_WriteReg(R2, 0x20000164)  returns 0x00 (0000ms, 0923ms total)
T07FC 001:837 JLINK_WriteReg(R3, 0x00000000)  returns 0x00 (0000ms, 0923ms total)
T07FC 001:837 JLINK_WriteReg(R4, 0x00000000)  returns 0x00 (0000ms, 0923ms total)
T07FC 001:837 JLINK_WriteReg(R5, 0x00000000)  returns 0x00 (0000ms, 0923ms total)
T07FC 001:837 JLINK_WriteReg(R6, 0x00000000)  returns 0x00 (0000ms, 0923ms total)
T07FC 001:837 JLINK_WriteReg(R7, 0x00000000)  returns 0x00 (0000ms, 0923ms total)
T07FC 001:837 JLINK_WriteReg(R8, 0x00000000)  returns 0x00 (0000ms, 0923ms total)
T07FC 001:837 JLINK_WriteReg(R9, 0x20000160)  returns 0x00 (0000ms, 0923ms total)
T07FC 001:837 JLINK_WriteReg(R10, 0x00000000)  returns 0x00 (0000ms, 0923ms total)
T07FC 001:837 JLINK_WriteReg(R11, 0x00000000)  returns 0x00 (0001ms, 0924ms total)
T07FC 001:838 JLINK_WriteReg(R12, 0x00000000)  returns 0x00 (0000ms, 0924ms total)
T07FC 001:838 JLINK_WriteReg(R13 (SP), 0x20001000)  returns 0x00 (0000ms, 0924ms total)
T07FC 001:838 JLINK_WriteReg(R14, 0x20000001)  returns 0x00 (0000ms, 0924ms total)
T07FC 001:838 JLINK_WriteReg(R15 (PC), 0x200000F4)  returns 0x00 (0000ms, 0924ms total)
T07FC 001:838 JLINK_WriteReg(XPSR, 0x01000000)  returns 0x00 (0000ms, 0924ms total)
T07FC 001:838 JLINK_WriteReg(MSP, 0x20001000)  returns 0x00 (0000ms, 0924ms total)
T07FC 001:838 JLINK_WriteReg(PSP, 0x20001000)  returns 0x00 (0000ms, 0924ms total)
T07FC 001:838 JLINK_WriteReg(CFBP, 0x00000000)  returns 0x00 (0000ms, 0924ms total)
T07FC 001:838 JLINK_SetBPEx(Addr = 0x20000000, Type = 0xFFFFFFF2)  returns 0x0000000A (0000ms, 0924ms total)
T07FC 001:838 JLINK_Go() -- CPU_ReadMem(4 bytes @ 0xE0001000) (0004ms, 0928ms total)
T07FC 001:842 JLINK_IsHalted()  returns FALSE (0001ms, 0929ms total)
T07FC 001:848 JLINK_IsHalted()  returns FALSE (0001ms, 0929ms total)
T07FC 001:851 JLINK_IsHalted()  returns FALSE (0001ms, 0929ms total)
T07FC 001:854 JLINK_IsHalted()  returns FALSE (0001ms, 0929ms total)
T07FC 001:857 JLINK_IsHalted()  returns FALSE (0001ms, 0929ms total)
T07FC 001:860 JLINK_IsHalted()  returns FALSE (0001ms, 0929ms total)
T07FC 001:863 JLINK_IsHalted()  returns FALSE (0001ms, 0929ms total)
T07FC 001:866 JLINK_IsHalted()  returns FALSE (0000ms, 0928ms total)
T07FC 001:868 JLINK_IsHalted()  returns FALSE (0001ms, 0929ms total)
T07FC 001:917 JLINK_IsHalted() -- CPU_ReadMem(2 bytes @ 0x20000000)  returns TRUE (0006ms, 0934ms total)
T07FC 001:923 JLINK_ReadReg(R15 (PC))  returns 0x20000000 (0000ms, 0928ms total)
T07FC 001:923 JLINK_ClrBPEx(BPHandle = 0x0000000A)  returns 0x00 (0000ms, 0928ms total)
T07FC 001:923 JLINK_ReadReg(R0)  returns 0x00000000 (0000ms, 0928ms total)
T07FC 001:925 JLINK_WriteMem(0x20000164, 0x0400 Bytes, ...) - Data: E1 89 88 42 14 D1 40 F2 04 60 00 F0 2C FC 61 8A ... -- CPU_WriteMem(1024 bytes @ 0x20000164)  returns 0x400 (0007ms, 0935ms total)
T07FC 001:932 JLINK_WriteReg(R0, 0x08001800)  returns 0x00 (0000ms, 0935ms total)
T07FC 001:932 JLINK_WriteReg(R1, 0x00000400)  returns 0x00 (0000ms, 0935ms total)
T07FC 001:932 JLINK_WriteReg(R2, 0x20000164)  returns 0x00 (0000ms, 0935ms total)
T07FC 001:932 JLINK_WriteReg(R3, 0x00000000)  returns 0x00 (0000ms, 0935ms total)
T07FC 001:932 JLINK_WriteReg(R4, 0x00000000)  returns 0x00 (0000ms, 0935ms total)
T07FC 001:932 JLINK_WriteReg(R5, 0x00000000)  returns 0x00 (0000ms, 0935ms total)
T07FC 001:932 JLINK_WriteReg(R6, 0x00000000)  returns 0x00 (0000ms, 0935ms total)
T07FC 001:932 JLINK_WriteReg(R7, 0x00000000)  returns 0x00 (0000ms, 0935ms total)
T07FC 001:932 JLINK_WriteReg(R8, 0x00000000)  returns 0x00 (0000ms, 0935ms total)
T07FC 001:932 JLINK_WriteReg(R9, 0x20000160)  returns 0x00 (0000ms, 0935ms total)
T07FC 001:932 JLINK_WriteReg(R10, 0x00000000)  returns 0x00 (0000ms, 0935ms total)
T07FC 001:932 JLINK_WriteReg(R11, 0x00000000)  returns 0x00 (0001ms, 0936ms total)
T07FC 001:933 JLINK_WriteReg(R12, 0x00000000)  returns 0x00 (0000ms, 0936ms total)
T07FC 001:933 JLINK_WriteReg(R13 (SP), 0x20001000)  returns 0x00 (0000ms, 0936ms total)
T07FC 001:933 JLINK_WriteReg(R14, 0x20000001)  returns 0x00 (0000ms, 0936ms total)
T07FC 001:933 JLINK_WriteReg(R15 (PC), 0x200000F4)  returns 0x00 (0000ms, 0936ms total)
T07FC 001:933 JLINK_WriteReg(XPSR, 0x01000000)  returns 0x00 (0000ms, 0936ms total)
T07FC 001:933 JLINK_WriteReg(MSP, 0x20001000)  returns 0x00 (0000ms, 0936ms total)
T07FC 001:933 JLINK_WriteReg(PSP, 0x20001000)  returns 0x00 (0000ms, 0936ms total)
T07FC 001:933 JLINK_WriteReg(CFBP, 0x00000000)  returns 0x00 (0000ms, 0936ms total)
T07FC 001:933 JLINK_SetBPEx(Addr = 0x20000000, Type = 0xFFFFFFF2)  returns 0x0000000B (0000ms, 0936ms total)
T07FC 001:933 JLINK_Go() -- CPU_ReadMem(4 bytes @ 0xE0001000) (0005ms, 0941ms total)
T07FC 001:938 JLINK_IsHalted()  returns FALSE (0001ms, 0942ms total)
T07FC 001:944 JLINK_IsHalted()  returns FALSE (0001ms, 0942ms total)
T07FC 001:947 JLINK_IsHalted()  returns FALSE (0001ms, 0942ms total)
T07FC 001:949 JLINK_IsHalted()  returns FALSE (0001ms, 0942ms total)
T07FC 001:952 JLINK_IsHalted()  returns FALSE (0001ms, 0942ms total)
T07FC 001:955 JLINK_IsHalted()  returns FALSE (0001ms, 0942ms total)
T07FC 001:958 JLINK_IsHalted()  returns FALSE (0001ms, 0942ms total)
T07FC 001:961 JLINK_IsHalted()  returns FALSE (0001ms, 0942ms total)
T07FC 001:964 JLINK_IsHalted()  returns FALSE (0001ms, 0942ms total)
T07FC 001:967 JLINK_IsHalted()  returns FALSE (0001ms, 0942ms total)
T07FC 001:970 JLINK_IsHalted() -- CPU_ReadMem(2 bytes @ 0x20000000)  returns TRUE (0006ms, 0947ms total)
T07FC 001:976 JLINK_ReadReg(R15 (PC))  returns 0x20000000 (0000ms, 0941ms total)
T07FC 001:976 JLINK_ClrBPEx(BPHandle = 0x0000000B)  returns 0x00 (0000ms, 0941ms total)
T07FC 001:976 JLINK_ReadReg(R0)  returns 0x00000000 (0000ms, 0941ms total)
T07FC 001:978 JLINK_WriteMem(0x20000164, 0x0400 Bytes, ...) - Data: 97 F8 20 00 06 28 01 D0 00 BF 00 BF 00 BF 06 25 ... -- CPU_WriteMem(1024 bytes @ 0x20000164)  returns 0x400 (0006ms, 0947ms total)
T07FC 001:984 JLINK_WriteReg(R0, 0x08001C00)  returns 0x00 (0001ms, 0948ms total)
T07FC 001:985 JLINK_WriteReg(R1, 0x00000400)  returns 0x00 (0000ms, 0948ms total)
T07FC 001:985 JLINK_WriteReg(R2, 0x20000164)  returns 0x00 (0000ms, 0948ms total)
T07FC 001:985 JLINK_WriteReg(R3, 0x00000000)  returns 0x00 (0000ms, 0948ms total)
T07FC 001:985 JLINK_WriteReg(R4, 0x00000000)  returns 0x00 (0000ms, 0948ms total)
T07FC 001:985 JLINK_WriteReg(R5, 0x00000000)  returns 0x00 (0000ms, 0948ms total)
T07FC 001:985 JLINK_WriteReg(R6, 0x00000000)  returns 0x00 (0000ms, 0948ms total)
T07FC 001:985 JLINK_WriteReg(R7, 0x00000000)  returns 0x00 (0000ms, 0948ms total)
T07FC 001:985 JLINK_WriteReg(R8, 0x00000000)  returns 0x00 (0000ms, 0948ms total)
T07FC 001:985 JLINK_WriteReg(R9, 0x20000160)  returns 0x00 (0000ms, 0948ms total)
T07FC 001:985 JLINK_WriteReg(R10, 0x00000000)  returns 0x00 (0000ms, 0948ms total)
T07FC 001:985 JLINK_WriteReg(R11, 0x00000000)  returns 0x00 (0000ms, 0948ms total)
T07FC 001:985 JLINK_WriteReg(R12, 0x00000000)  returns 0x00 (0000ms, 0948ms total)
T07FC 001:985 JLINK_WriteReg(R13 (SP), 0x20001000)  returns 0x00 (0000ms, 0948ms total)
T07FC 001:985 JLINK_WriteReg(R14, 0x20000001)  returns 0x00 (0000ms, 0948ms total)
T07FC 001:985 JLINK_WriteReg(R15 (PC), 0x200000F4)  returns 0x00 (0001ms, 0949ms total)
T07FC 001:986 JLINK_WriteReg(XPSR, 0x01000000)  returns 0x00 (0000ms, 0949ms total)
T07FC 001:986 JLINK_WriteReg(MSP, 0x20001000)  returns 0x00 (0000ms, 0949ms total)
T07FC 001:986 JLINK_WriteReg(PSP, 0x20001000)  returns 0x00 (0000ms, 0949ms total)
T07FC 001:986 JLINK_WriteReg(CFBP, 0x00000000)  returns 0x00 (0000ms, 0949ms total)
T07FC 001:986 JLINK_SetBPEx(Addr = 0x20000000, Type = 0xFFFFFFF2)  returns 0x0000000C (0000ms, 0949ms total)
T07FC 001:986 JLINK_Go() -- CPU_ReadMem(4 bytes @ 0xE0001000) (0003ms, 0952ms total)
T07FC 001:990 JLINK_IsHalted()  returns FALSE (0001ms, 0954ms total)
T07FC 002:038 JLINK_IsHalted() -- CPU_ReadMem(2 bytes @ 0x20000000)  returns TRUE (0006ms, 0959ms total)
T07FC 002:044 JLINK_ReadReg(R15 (PC))  returns 0x20000000 (0000ms, 0953ms total)
T07FC 002:044 JLINK_ClrBPEx(BPHandle = 0x0000000C)  returns 0x00 (0000ms, 0953ms total)
T07FC 002:044 JLINK_ReadReg(R0)  returns 0x00000000 (0000ms, 0953ms total)
T07FC 002:046 JLINK_WriteMem(0x20000164, 0x0400 Bytes, ...) - Data: 00 28 F9 D0 20 46 70 BD 00 38 01 40 70 B5 04 46 ... -- CPU_WriteMem(1024 bytes @ 0x20000164)  returns 0x400 (0007ms, 0960ms total)
T07FC 002:053 JLINK_WriteReg(R0, 0x08002000)  returns 0x00 (0000ms, 0960ms total)
T07FC 002:053 JLINK_WriteReg(R1, 0x00000400)  returns 0x00 (0000ms, 0960ms total)
T07FC 002:053 JLINK_WriteReg(R2, 0x20000164)  returns 0x00 (0000ms, 0960ms total)
T07FC 002:053 JLINK_WriteReg(R3, 0x00000000)  returns 0x00 (0000ms, 0960ms total)
T07FC 002:053 JLINK_WriteReg(R4, 0x00000000)  returns 0x00 (0000ms, 0960ms total)
T07FC 002:053 JLINK_WriteReg(R5, 0x00000000)  returns 0x00 (0000ms, 0960ms total)
T07FC 002:053 JLINK_WriteReg(R6, 0x00000000)  returns 0x00 (0000ms, 0960ms total)
T07FC 002:053 JLINK_WriteReg(R7, 0x00000000)  returns 0x00 (0000ms, 0960ms total)
T07FC 002:053 JLINK_WriteReg(R8, 0x00000000)  returns 0x00 (0000ms, 0960ms total)
T07FC 002:053 JLINK_WriteReg(R9, 0x20000160)  returns 0x00 (0000ms, 0960ms total)
T07FC 002:053 JLINK_WriteReg(R10, 0x00000000)  returns 0x00 (0001ms, 0961ms total)
T07FC 002:054 JLINK_WriteReg(R11, 0x00000000)  returns 0x00 (0000ms, 0961ms total)
T07FC 002:054 JLINK_WriteReg(R12, 0x00000000)  returns 0x00 (0000ms, 0961ms total)
T07FC 002:054 JLINK_WriteReg(R13 (SP), 0x20001000)  returns 0x00 (0000ms, 0961ms total)
T07FC 002:054 JLINK_WriteReg(R14, 0x20000001)  returns 0x00 (0000ms, 0961ms total)
T07FC 002:054 JLINK_WriteReg(R15 (PC), 0x200000F4)  returns 0x00 (0000ms, 0961ms total)
T07FC 002:054 JLINK_WriteReg(XPSR, 0x01000000)  returns 0x00 (0000ms, 0961ms total)
T07FC 002:054 JLINK_WriteReg(MSP, 0x20001000)  returns 0x00 (0000ms, 0961ms total)
T07FC 002:054 JLINK_WriteReg(PSP, 0x20001000)  returns 0x00 (0000ms, 0961ms total)
T07FC 002:054 JLINK_WriteReg(CFBP, 0x00000000)  returns 0x00 (0000ms, 0961ms total)
T07FC 002:054 JLINK_SetBPEx(Addr = 0x20000000, Type = 0xFFFFFFF2)  returns 0x0000000D (0000ms, 0961ms total)
T07FC 002:054 JLINK_Go() -- CPU_ReadMem(4 bytes @ 0xE0001000) (0005ms, 0966ms total)
T07FC 002:059 JLINK_IsHalted()  returns FALSE (0001ms, 0967ms total)
T07FC 002:065 JLINK_IsHalted()  returns FALSE (0001ms, 0967ms total)
T07FC 002:068 JLINK_IsHalted()  returns FALSE (0001ms, 0967ms total)
T07FC 002:071 JLINK_IsHalted()  returns FALSE (0001ms, 0967ms total)
T07FC 002:074 JLINK_IsHalted()  returns FALSE (0000ms, 0966ms total)
T07FC 002:076 JLINK_IsHalted()  returns FALSE (0001ms, 0967ms total)
T07FC 002:079 JLINK_IsHalted()  returns FALSE (0001ms, 0967ms total)
T07FC 002:082 JLINK_IsHalted()  returns FALSE (0001ms, 0967ms total)
T07FC 002:085 JLINK_IsHalted()  returns FALSE (0001ms, 0967ms total)
T07FC 002:088 JLINK_IsHalted()  returns FALSE (0001ms, 0967ms total)
T07FC 002:144 JLINK_IsHalted() -- CPU_ReadMem(2 bytes @ 0x20000000)  returns TRUE (0006ms, 0972ms total)
T07FC 002:150 JLINK_ReadReg(R15 (PC))  returns 0x20000000 (0000ms, 0966ms total)
T07FC 002:150 JLINK_ClrBPEx(BPHandle = 0x0000000D)  returns 0x00 (0001ms, 0967ms total)
T07FC 002:151 JLINK_ReadReg(R0)  returns 0x00000000 (0000ms, 0967ms total)
T07FC 002:153 JLINK_WriteMem(0x20000164, 0x0400 Bytes, ...) - Data: 40 EA 01 07 02 98 08 B9 47 F4 00 57 02 98 08 B1 ... -- CPU_WriteMem(1024 bytes @ 0x20000164)  returns 0x400 (0006ms, 0973ms total)
T07FC 002:159 JLINK_WriteReg(R0, 0x08002400)  returns 0x00 (0000ms, 0973ms total)
T07FC 002:159 JLINK_WriteReg(R1, 0x00000400)  returns 0x00 (0000ms, 0973ms total)
T07FC 002:159 JLINK_WriteReg(R2, 0x20000164)  returns 0x00 (0000ms, 0973ms total)
T07FC 002:160 JLINK_WriteReg(R3, 0x00000000)  returns 0x00 (0000ms, 0974ms total)
T07FC 002:160 JLINK_WriteReg(R4, 0x00000000)  returns 0x00 (0000ms, 0974ms total)
T07FC 002:160 JLINK_WriteReg(R5, 0x00000000)  returns 0x00 (0000ms, 0974ms total)
T07FC 002:160 JLINK_WriteReg(R6, 0x00000000)  returns 0x00 (0000ms, 0974ms total)
T07FC 002:160 JLINK_WriteReg(R7, 0x00000000)  returns 0x00 (0000ms, 0974ms total)
T07FC 002:160 JLINK_WriteReg(R8, 0x00000000)  returns 0x00 (0000ms, 0974ms total)
T07FC 002:160 JLINK_WriteReg(R9, 0x20000160)  returns 0x00 (0000ms, 0974ms total)
T07FC 002:160 JLINK_WriteReg(R10, 0x00000000)  returns 0x00 (0000ms, 0974ms total)
T07FC 002:160 JLINK_WriteReg(R11, 0x00000000)  returns 0x00 (0000ms, 0974ms total)
T07FC 002:160 JLINK_WriteReg(R12, 0x00000000)  returns 0x00 (0000ms, 0974ms total)
T07FC 002:160 JLINK_WriteReg(R13 (SP), 0x20001000)  returns 0x00 (0000ms, 0974ms total)
T07FC 002:160 JLINK_WriteReg(R14, 0x20000001)  returns 0x00 (0000ms, 0974ms total)
T07FC 002:160 JLINK_WriteReg(R15 (PC), 0x200000F4)  returns 0x00 (0000ms, 0974ms total)
T07FC 002:160 JLINK_WriteReg(XPSR, 0x01000000)  returns 0x00 (0000ms, 0974ms total)
T07FC 002:160 JLINK_WriteReg(MSP, 0x20001000)  returns 0x00 (0000ms, 0974ms total)
T07FC 002:160 JLINK_WriteReg(PSP, 0x20001000)  returns 0x00 (0001ms, 0975ms total)
T07FC 002:161 JLINK_WriteReg(CFBP, 0x00000000)  returns 0x00 (0000ms, 0975ms total)
T07FC 002:161 JLINK_SetBPEx(Addr = 0x20000000, Type = 0xFFFFFFF2)  returns 0x0000000E (0000ms, 0975ms total)
T07FC 002:161 JLINK_Go() -- CPU_ReadMem(4 bytes @ 0xE0001000) (0004ms, 0979ms total)
T07FC 002:165 JLINK_IsHalted()  returns FALSE (0001ms, 0980ms total)
T07FC 002:177 JLINK_IsHalted()  returns FALSE (0001ms, 0980ms total)
T07FC 002:181 JLINK_IsHalted()  returns FALSE (0001ms, 0980ms total)
T07FC 002:184 JLINK_IsHalted()  returns FALSE (0001ms, 0980ms total)
T07FC 002:187 JLINK_IsHalted()  returns FALSE (0001ms, 0980ms total)
T07FC 002:190 JLINK_IsHalted()  returns FALSE (0001ms, 0980ms total)
T07FC 002:193 JLINK_IsHalted()  returns FALSE (0001ms, 0980ms total)
T07FC 002:196 JLINK_IsHalted()  returns FALSE (0001ms, 0980ms total)
T07FC 002:199 JLINK_IsHalted() -- CPU_ReadMem(2 bytes @ 0x20000000)  returns TRUE (0005ms, 0984ms total)
T07FC 002:204 JLINK_ReadReg(R15 (PC))  returns 0x20000000 (0000ms, 0979ms total)
T07FC 002:204 JLINK_ClrBPEx(BPHandle = 0x0000000E)  returns 0x00 (0000ms, 0979ms total)
T07FC 002:204 JLINK_ReadReg(R0)  returns 0x00000000 (0000ms, 0979ms total)
T07FC 002:205 JLINK_WriteMem(0x20000164, 0x0400 Bytes, ...) - Data: 00 88 30 44 0A 28 00 DD 87 E0 47 48 04 68 12 E0 ... -- CPU_WriteMem(1024 bytes @ 0x20000164)  returns 0x400 (0007ms, 0986ms total)
T07FC 002:212 JLINK_WriteReg(R0, 0x08002800)  returns 0x00 (0000ms, 0986ms total)
T07FC 002:212 JLINK_WriteReg(R1, 0x00000400)  returns 0x00 (0001ms, 0987ms total)
T07FC 002:213 JLINK_WriteReg(R2, 0x20000164)  returns 0x00 (0000ms, 0987ms total)
T07FC 002:213 JLINK_WriteReg(R3, 0x00000000)  returns 0x00 (0000ms, 0987ms total)
T07FC 002:213 JLINK_WriteReg(R4, 0x00000000)  returns 0x00 (0000ms, 0987ms total)
T07FC 002:213 JLINK_WriteReg(R5, 0x00000000)  returns 0x00 (0000ms, 0987ms total)
T07FC 002:213 JLINK_WriteReg(R6, 0x00000000)  returns 0x00 (0000ms, 0987ms total)
T07FC 002:213 JLINK_WriteReg(R7, 0x00000000)  returns 0x00 (0000ms, 0987ms total)
T07FC 002:213 JLINK_WriteReg(R8, 0x00000000)  returns 0x00 (0000ms, 0987ms total)
T07FC 002:213 JLINK_WriteReg(R9, 0x20000160)  returns 0x00 (0000ms, 0987ms total)
T07FC 002:213 JLINK_WriteReg(R10, 0x00000000)  returns 0x00 (0000ms, 0987ms total)
T07FC 002:213 JLINK_WriteReg(R11, 0x00000000)  returns 0x00 (0000ms, 0987ms total)
T07FC 002:213 JLINK_WriteReg(R12, 0x00000000)  returns 0x00 (0000ms, 0987ms total)
T07FC 002:213 JLINK_WriteReg(R13 (SP), 0x20001000)  returns 0x00 (0000ms, 0987ms total)
T07FC 002:213 JLINK_WriteReg(R14, 0x20000001)  returns 0x00 (0000ms, 0987ms total)
T07FC 002:213 JLINK_WriteReg(R15 (PC), 0x200000F4)  returns 0x00 (0000ms, 0987ms total)
T07FC 002:213 JLINK_WriteReg(XPSR, 0x01000000)  returns 0x00 (0001ms, 0988ms total)
T07FC 002:214 JLINK_WriteReg(MSP, 0x20001000)  returns 0x00 (0000ms, 0988ms total)
T07FC 002:214 JLINK_WriteReg(PSP, 0x20001000)  returns 0x00 (0000ms, 0988ms total)
T07FC 002:214 JLINK_WriteReg(CFBP, 0x00000000)  returns 0x00 (0000ms, 0988ms total)
T07FC 002:214 JLINK_SetBPEx(Addr = 0x20000000, Type = 0xFFFFFFF2)  returns 0x0000000F (0000ms, 0988ms total)
T07FC 002:214 JLINK_Go() -- CPU_ReadMem(4 bytes @ 0xE0001000) (0004ms, 0992ms total)
T07FC 002:218 JLINK_IsHalted()  returns FALSE (0001ms, 0993ms total)
T07FC 002:273 JLINK_IsHalted() -- CPU_ReadMem(2 bytes @ 0x20000000)  returns TRUE (0006ms, 0998ms total)
T07FC 002:279 JLINK_ReadReg(R15 (PC))  returns 0x20000000 (0000ms, 0992ms total)
T07FC 002:279 JLINK_ClrBPEx(BPHandle = 0x0000000F)  returns 0x00 (0000ms, 0992ms total)
T07FC 002:279 JLINK_ReadReg(R0)  returns 0x00000000 (0000ms, 0992ms total)
T07FC 002:281 JLINK_WriteMem(0x20000164, 0x0400 Bytes, ...) - Data: F0 87 00 00 BC 00 00 20 2D E9 F0 5F 05 46 89 46 ... -- CPU_WriteMem(1024 bytes @ 0x20000164)  returns 0x400 (0006ms, 0999ms total)
T07FC 002:287 JLINK_WriteReg(R0, 0x08002C00)  returns 0x00 (0000ms, 0999ms total)
T07FC 002:287 JLINK_WriteReg(R1, 0x00000400)  returns 0x00 (0000ms, 0999ms total)
T07FC 002:287 JLINK_WriteReg(R2, 0x20000164)  returns 0x00 (0000ms, 0999ms total)
T07FC 002:287 JLINK_WriteReg(R3, 0x00000000)  returns 0x00 (0000ms, 0999ms total)
T07FC 002:287 JLINK_WriteReg(R4, 0x00000000)  returns 0x00 (0000ms, 0999ms total)
T07FC 002:287 JLINK_WriteReg(R5, 0x00000000)  returns 0x00 (0000ms, 0999ms total)
T07FC 002:287 JLINK_WriteReg(R6, 0x00000000)  returns 0x00 (0000ms, 0999ms total)
T07FC 002:287 JLINK_WriteReg(R7, 0x00000000)  returns 0x00 (0000ms, 0999ms total)
T07FC 002:287 JLINK_WriteReg(R8, 0x00000000)  returns 0x00 (0000ms, 0999ms total)
T07FC 002:287 JLINK_WriteReg(R9, 0x20000160)  returns 0x00 (0000ms, 0999ms total)
T07FC 002:287 JLINK_WriteReg(R10, 0x00000000)  returns 0x00 (0000ms, 0999ms total)
T07FC 002:287 JLINK_WriteReg(R11, 0x00000000)  returns 0x00 (0000ms, 0999ms total)
T07FC 002:287 JLINK_WriteReg(R12, 0x00000000)  returns 0x00 (0001ms, 1000ms total)
T07FC 002:288 JLINK_WriteReg(R13 (SP), 0x20001000)  returns 0x00 (0000ms, 1000ms total)
T07FC 002:288 JLINK_WriteReg(R14, 0x20000001)  returns 0x00 (0000ms, 1000ms total)
T07FC 002:288 JLINK_WriteReg(R15 (PC), 0x200000F4)  returns 0x00 (0000ms, 1000ms total)
T07FC 002:288 JLINK_WriteReg(XPSR, 0x01000000)  returns 0x00 (0000ms, 1000ms total)
T07FC 002:288 JLINK_WriteReg(MSP, 0x20001000)  returns 0x00 (0000ms, 1000ms total)
T07FC 002:288 JLINK_WriteReg(PSP, 0x20001000)  returns 0x00 (0000ms, 1000ms total)
T07FC 002:288 JLINK_WriteReg(CFBP, 0x00000000)  returns 0x00 (0000ms, 1000ms total)
T07FC 002:288 JLINK_SetBPEx(Addr = 0x20000000, Type = 0xFFFFFFF2)  returns 0x00000010 (0000ms, 1000ms total)
T07FC 002:288 JLINK_Go() -- CPU_ReadMem(4 bytes @ 0xE0001000) (0004ms, 1004ms total)
T07FC 002:292 JLINK_IsHalted()  returns FALSE (0001ms, 1005ms total)
T07FC 002:301 JLINK_IsHalted()  returns FALSE (0001ms, 1005ms total)
T07FC 002:304 JLINK_IsHalted()  returns FALSE (0001ms, 1005ms total)
T07FC 002:307 JLINK_IsHalted()  returns FALSE (0001ms, 1005ms total)
T07FC 002:310 JLINK_IsHalted()  returns FALSE (0001ms, 1005ms total)
T07FC 002:313 JLINK_IsHalted()  returns FALSE (0001ms, 1005ms total)
T07FC 002:366 JLINK_IsHalted() -- CPU_ReadMem(2 bytes @ 0x20000000)  returns TRUE (0006ms, 1010ms total)
T07FC 002:372 JLINK_ReadReg(R15 (PC))  returns 0x20000000 (0000ms, 1004ms total)
